
T156C 000:452 SEGGER J-Link V4.80g Log File (0002ms, 0280ms total)
T156C 000:452 DLL Compiled: Feb 13 2014 20:50:02 (0002ms, 0280ms total)
T156C 000:452 Logging started @ 2019-02-25 12:59 (0002ms, 0280ms total)
T156C 000:454 JLINK_SetWarnOutHandler(...) (0000ms, 0280ms total)
T156C 000:454 JLINK_OpenEx(...)
Firmware: J-Link V9 compiled Oct  9 2015 20:34:47
Hardware: V9.20
Feature(s): GDB, RDI, FlashBP, FlashDL, JFlash  returns O.K. (0273ms, 0553ms total)
T156C 000:727 JLINK_SetErrorOutHandler(...) (0000ms, 0553ms total)
T156C 000:727 JLINK_ExecCommand("ProjectFile = "C:\Documents and Settings\als\Desktop\RTOS-PROJECTS\RTOS-ALS-SDA-ARMCTXM3-REV02\EXAMPLES\7.RoundRobin\JLinkSettings.ini"", ...)  returns 0x00 (0002ms, 0555ms total)
T156C 000:729 JLINK_ExecCommand("Device = LPC1768", ...)Device "LPC1768" selected (512 KB flash, 32 KB RAM).  returns 0x00 (0003ms, 0558ms total)
T156C 000:733 JLINK_ExecCommand("DisableConnectionTimeout", ...)  returns 0x01 (0000ms, 0559ms total)
T156C 000:733 JLINK_GetHardwareVersion()  returns 0x16760 (0000ms, 0559ms total)
T156C 000:733 JLINK_GetDLLVersion()  returns 48007 (0000ms, 0559ms total)
T156C 000:733 JLINK_GetFirmwareString(...) (0000ms, 0559ms total)
T156C 000:733 JLINK_GetDLLVersion()  returns 48007 (0001ms, 0560ms total)
T156C 000:734 JLINK_GetCompileDateTime() (0000ms, 0560ms total)
T156C 000:734 JLINK_GetFirmwareString(...) (0000ms, 0560ms total)
T156C 000:735 JLINK_GetHardwareVersion()  returns 0x16760 (0000ms, 0560ms total)
T156C 000:735 JLINK_TIF_Select(JLINKARM_TIF_SWD)  returns 0x00 (0006ms, 0566ms total)
T156C 000:741 JLINK_SetSpeed(2000) (0002ms, 0568ms total)
T156C 000:743 JLINK_GetId() >0x108 TIF>Found SWD-DP with ID 0x2BA01477 >0x0D TIF> >0x21 TIF> >0x0D TIF> >0x28 TIF> >0x0D TIF> >0x28 TIF> >0x0D TIF> >0x21 TIF> >0x0D TIF> >0x28 TIF> >0x0D TIF> >0x21 TIF> >0x0D TIF> >0x21 TIF> >0x0D TIF> >0x21 TIF> >0x0D TIF> >0x21 TIF> >0x0D TIF> >0x28 TIF> >0x0D TIF> >0x28 TIF> >0x0D TIF> >0x21 TIF> >0x0D TIF> >0x28 TIF> >0x0D TIF> >0x28 TIF> >0x0D TIF> >0x28 TIF> >0x0D TIF> >0x21 TIF> >0x0D TIF> >0x21 TIF> >0x0D TIF> >0x28 TIF> >0x0D TIF> >0x21 TIF> >0x0D TIF>
 >0x21 TIF>Found Cortex-M3 r2p0, Little endian. -- CPU_WriteMem(4 bytes @ 0xE0002000) -- CPU_ReadMem(4 bytes @ 0xE000EDF0) -- CPU_ReadMem(4 bytes @ 0xE0002000)FPUnit: 6 code (BP) slots and 2 literal slots -- CPU_ReadMem(4 bytes @ 0xE000EDFC) -- CPU_ReadMem(4 bytes @ 0xE0001000) -- CPU_WriteMem(4 bytes @ 0xE0001000) -- CPU_ReadMem(4 bytes @ 0xE00FF010)TPIU fitted. -- CPU_ReadMem(4 bytes @ 0xE00FF014)ETM fitted. -- CPU_ReadMem(4 bytes @ 0xE00FF018) >0x0D TIF> >0x21 TIF>  returns 0x2BA01477
 (0058ms, 0626ms total)
T156C 000:801 JLINK_GetDeviceFamily()  returns 3 (0000ms, 0626ms total)
T156C 000:801 JLINK_ReadMem (0xE00FFFF0, 0x0010 Bytes, ...) -- CPU is running -- CPU_ReadMem(16 bytes @ 0xE00FFFF0) -- Data:  0D 00 00 00 10 00 00 00 05 00 00 00 B1 00 00 00  returns 0x00 (0002ms, 0628ms total)
T156C 000:803 JLINK_ReadMem (0xE00FFFD0, 0x0020 Bytes, ...) -- CPU is running -- CPU_ReadMem(32 bytes @ 0xE00FFFD0) -- Data:  00 00 00 00 00 00 00 00 00 00 00 00 00 00 00 00 ...  returns 0x00 (0001ms, 0629ms total)
T156C 000:804 JLINK_ReadMem (0xE00FF000, 0x0018 Bytes, ...) -- CPU is running -- CPU_ReadMem(24 bytes @ 0xE00FF000) -- Data:  03 F0 F0 FF 03 20 F0 FF 03 30 F0 FF 03 10 F0 FF ...  returns 0x00 (0001ms, 0630ms total)
T156C 000:806 JLINK_ReadMemU32(0xE000ED00, 0x0001 Items, ...) -- CPU is running -- CPU_ReadMem(4 bytes @ 0xE000ED00) -- Data:  30 C2 2F 41  returns 0x01 (0000ms, 0630ms total)
T156C 000:806 JLINK_SetResetType(JLINKARM_RESET_TYPE_NORMAL)  returns ??? (0000ms, 0630ms total)
T156C 000:807 JLINK_Reset() -- CPU is running -- CPU_WriteMem(4 bytes @ 0xE000EDF0) -- CPU is running -- CPU_WriteMem(4 bytes @ 0xE000EDFC) >0x35 TIF> -- CPU is running -- CPU_WriteMem(4 bytes @ 0xE000ED0C) -- CPU is running -- CPU_ReadMem(4 bytes @ 0xE000EDF0) -- CPU is running -- CPU_ReadMem(4 bytes @ 0xE000EDF0) -- CPU is running -- CPU_WriteMem(4 bytes @ 0xE000EDF0) -- CPU is running -- CPU_WriteMem(4 bytes @ 0xE000EDFC) -- CPU is running -- CPU_ReadMem(4 bytes @ 0xE000EDF0)
 -- CPU_WriteMem(4 bytes @ 0xE000EDFC) -- CPU_WriteMem(4 bytes @ 0xE000EDFC) -- CPU_WriteMem(4 bytes @ 0xE000EDFC) -- CPU_WriteMem(4 bytes @ 0xE000EDFC) -- CPU_WriteMem(4 bytes @ 0xE000EDFC) -- CPU_WriteMem(4 bytes @ 0xE0001050) -- CPU_WriteMem(4 bytes @ 0xE0001054) -- CPU_WriteMem(4 bytes @ 0xE0001058) -- CPU_WriteMem(4 bytes @ 0xE000EDFC) -- CPU_WriteMem(4 bytes @ 0xE0001058) -- CPU_ReadMem(4 bytes @ 0x00000004) -- CPU_ReadMem(4 bytes @ 0xE0002000) -- CPU_ReadMem(4 bytes @ 0xE0002008)
 -- CPU_ReadMem(4 bytes @ 0xE000200C) -- CPU_ReadMem(4 bytes @ 0xE0002010) -- CPU_ReadMem(4 bytes @ 0xE0002014) -- CPU_ReadMem(4 bytes @ 0xE0002018) -- CPU_ReadMem(4 bytes @ 0xE000201C) -- CPU_WriteMem(4 bytes @ 0xE0002000) -- CPU_WriteMem(4 bytes @ 0xE0002008) -- CPU_WriteMem(4 bytes @ 0xE000200C) -- CPU_WriteMem(4 bytes @ 0xE0002010) -- CPU_WriteMem(4 bytes @ 0xE0002014) -- CPU_WriteMem(4 bytes @ 0xE0002018) -- CPU_WriteMem(4 bytes @ 0xE000201C) -- CPU_ReadMem(4 bytes @ 0x400FC040)
 -- CPU_WriteMem(4 bytes @ 0xE0002000) -- CPU_WriteMem(4 bytes @ 0xE0002008) -- CPU_WriteMem(4 bytes @ 0xE000200C) -- CPU_WriteMem(4 bytes @ 0xE0002010) -- CPU_WriteMem(4 bytes @ 0xE0002014) -- CPU_WriteMem(4 bytes @ 0xE0002018) -- CPU_WriteMem(4 bytes @ 0xE000201C) -- CPU_WriteMem(4 bytes @ 0xE0002000) -- CPU_ReadMem(4 bytes @ 0xE000EDFC) -- CPU_ReadMem(4 bytes @ 0xE0001000) (0273ms, 0904ms total)
T156C 001:080 JLINK_ReadReg(R15 (PC))  returns 0x00000234 (0001ms, 0905ms total)
T156C 001:081 JLINK_ReadReg(XPSR)  returns 0x61000000 (0000ms, 0905ms total)
T156C 001:081 JLINK_Halt()  returns 0x00 (0000ms, 0905ms total)
T156C 001:081 JLINK_IsHalted()  returns TRUE (0000ms, 0905ms total)
T156C 001:081 JLINK_ReadMemU32(0xE000EDF0, 0x0001 Items, ...) -- CPU_ReadMem(4 bytes @ 0xE000EDF0) -- Data:  03 00 03 00  returns 0x01 (0002ms, 0907ms total)
T156C 001:083 JLINK_WriteU32(0xE000EDF0, 0xA05F0003) -- CPU_WriteMem(4 bytes @ 0xE000EDF0)  returns 0x00 (0001ms, 0908ms total)
T156C 001:084 JLINK_WriteU32(0xE000EDFC, 0x01000000) -- CPU_WriteMem(4 bytes @ 0xE000EDFC)  returns 0x00 (0001ms, 0909ms total)
T156C 001:085 JLINK_GetHWStatus(...)  returns 0x00 (0001ms, 0910ms total)
T156C 001:086 JLINK_GetNumBPUnits(Type = 0xFFFFFF00)  returns 0x06 (0000ms, 0910ms total)
T156C 001:086 JLINK_GetNumBPUnits(Type = 0xF0)  returns 0x2000 (0000ms, 0910ms total)
T156C 001:086 JLINK_GetNumWPUnits()  returns 0x04 (0000ms, 0910ms total)
T156C 001:087 JLINK_GetSpeed()  returns 0x7D0 (0000ms, 0910ms total)
T156C 001:087 JLINK_ReadMemU32(0xE000E004, 0x0001 Items, ...) -- CPU_ReadMem(4 bytes @ 0xE000E004) -- Data:  01 00 00 00  returns 0x01 (0001ms, 0911ms total)
T156C 001:088 JLINK_ReadMemU32(0xE000E004, 0x0001 Items, ...) -- CPU_ReadMem(4 bytes @ 0xE000E004) -- Data:  01 00 00 00  returns 0x01 (0001ms, 0912ms total)
T156C 001:089 JLINK_WriteMem(0xE0001000, 0x001C Bytes, ...) -- Data:  01 00 00 00 00 00 00 00 00 00 00 00 00 00 00 00 ... -- CPU_WriteMem(28 bytes @ 0xE0001000)  returns 0x1C (0001ms, 0913ms total)
T156C 001:090 JLINK_ReadMem (0xE0001000, 0x001C Bytes, ...) -- CPU_ReadMem(28 bytes @ 0xE0001000) -- Data:  01 00 00 40 00 00 00 00 00 00 00 00 00 00 00 00 ...  returns 0x00 (0001ms, 0914ms total)
T156C 001:091 JLINK_ReadReg(R15 (PC))  returns 0x00000234 (0000ms, 0914ms total)
T156C 001:091 JLINK_ReadReg(XPSR)  returns 0x61000000 (0000ms, 0914ms total)
T156C 001:190 JLINK_WriteU8(0x400FC040, 0x01) -- CPU_WriteMem(1 bytes @ 0x400FC040)  returns 0x00 (0001ms, 0915ms total)
T156C 001:215 JLINK_WriteMem(0x00000000, 0x0400 Bytes, ...) -- Data:  08 0B 00 10 35 02 00 00 3D 02 00 00 3F 02 00 00 ... -- CPU_ReadMem(4 bytes @ 0x400FC040)  returns 0x400 (0002ms, 0917ms total)
T156C 001:217 JLINK_WriteMem(0x00000400, 0x0400 Bytes, ...) -- Data:  49 00 DF F8 DC C0 00 DF 27 4C 00 23 1A 46 02 21 ...  returns 0x400 (0000ms, 0917ms total)
T156C 001:217 JLINK_WriteMem(0x00000800, 0x0400 Bytes, ...) -- Data:  0A 91 00 28 04 DA C0 F1 00 00 4F F0 2D 01 02 E0 ...  returns 0x400 (0000ms, 0917ms total)
T156C 001:218 JLINK_WriteMem(0x00000C00, 0x0400 Bytes, ...) -- Data:  09 68 C1 80 70 47 00 00 30 00 00 10 0C 12 00 00 ...  returns 0x400 (0000ms, 0918ms total)
T156C 001:218 JLINK_ReadMem (0x00000000, 0x1000 Bytes, ...) -- Read from flash cache (4096 bytes @ 0x00000000) -- Data:  08 0B 00 10 35 02 00 00 3D 02 00 00 3F 02 00 00 ...  returns 0x00 (0000ms, 0918ms total)
T156C 001:220 JLINK_WriteMem(0x00001000, 0x0290 Bytes, ...) -- Data:  00 F0 62 B8 8C 08 00 10 04 12 00 00 20 12 00 00 ...  returns 0x290 (0001ms, 0919ms total)
T156C 001:221 JLINK_ReadMem (0x00001000, 0x0290 Bytes, ...) -- Read from flash cache (656 bytes @ 0x00001000) -- Data:  00 F0 62 B8 8C 08 00 10 04 12 00 00 20 12 00 00 ...  returns 0x00 (0000ms, 0919ms total)
T156C 001:275 JLINK_SetResetType(JLINKARM_RESET_TYPE_NORMAL)  returns ??? (0001ms, 0920ms total)
T156C 001:276 JLINK_Reset() -- -------------------------------------- -- Start of determining dirty areas -- End of determining dirty areas -- Start of preparing flash programming -- Calculating RAM usage -- RAM usage = 2772 Bytes -- Preserving registers -- Preparing memory -- Determining CPU clock frequency -- CPU clock frequency: 4000 kHz -- CPU frequency = 4000 kHz -- Preparing target -- Preserving additional used target memory -- Downloading RAMCode -- Using alternate TurboMode RAMCode
 -- Checking target RAM -- Preparing RAMCode -- End of preparing flash programmingCPU is running at low speed (4000 kHz). -- CPU is running at 4000 kHz. -- Start of comparing flash -- CRC check was estimated as fastest method -- Comparing range 0x0000 - 0x1FFF (2 Sectors, 8 KB), using multi-block CRC calculation -- CRC does not match for sector 0 -- End of comparing flash -- Start of erasing sectors -- Erasing range 0x00000000 - 0x00000FFF (  1 Sector, 4 KB) -- End of erasing sectors
 -- Start of flash programming -- Programming range 0x00000000 - 0x00000FFF (  1 Sector, 4 KB) -- End of flash programming -- Flash programming performed for 1 range (4096 bytes) -- 0x0000 - 0x0FFF (001 Sector, 4 KB) -- Start of verifying flash -- Checksum calculation was estimated as fastest method -- End of verifying flash -- Start of restoring -- Restore RAMCode -- Restore content of target memory -- Restore target -- Restore memory -- Restore content of registers -- End of restoring
 -- Total time needed: 0.311s (Prepare: 0.091s, Compare: 0.040s, Erase: 0.112s, Program: 0.054s, Verify: 0.002s, Restore: 0.010s) -- CPU_WriteMem(4 bytes @ 0xE000EDF0) -- CPU_WriteMem(4 bytes @ 0xE000EDFC) >0x35 TIF> -- CPU_WriteMem(4 bytes @ 0xE000ED0C) -- CPU_ReadMem(4 bytes @ 0xE000EDF0) -- CPU_ReadMem(4 bytes @ 0xE000EDF0) -- CPU_WriteMem(4 bytes @ 0xE000EDF0) -- CPU_WriteMem(4 bytes @ 0xE000EDFC) -- CPU is running -- CPU_ReadMem(4 bytes @ 0xE000EDF0) -- CPU_WriteMem(4 bytes @ 0xE000EDFC)
 -- CPU_WriteMem(4 bytes @ 0xE000EDFC) -- CPU_WriteMem(4 bytes @ 0xE000EDFC) -- CPU_WriteMem(4 bytes @ 0xE000EDFC) -- CPU_WriteMem(4 bytes @ 0xE000EDFC) -- CPU_WriteMem(4 bytes @ 0xE0001050) -- CPU_WriteMem(4 bytes @ 0xE0001054) -- CPU_WriteMem(4 bytes @ 0xE0001058) -- CPU_WriteMem(4 bytes @ 0xE000EDFC) -- CPU_WriteMem(4 bytes @ 0xE0001058) -- CPU_ReadMem(4 bytes @ 0x00000004) -- CPU_ReadMem(4 bytes @ 0xE0002000) -- CPU_ReadMem(4 bytes @ 0xE0002008) -- CPU_ReadMem(4 bytes @ 0xE000200C)
 -- CPU_ReadMem(4 bytes @ 0xE0002010) -- CPU_ReadMem(4 bytes @ 0xE0002014) -- CPU_ReadMem(4 bytes @ 0xE0002018) -- CPU_ReadMem(4 bytes @ 0xE000201C) -- CPU_WriteMem(4 bytes @ 0xE0002000) -- CPU_WriteMem(4 bytes @ 0xE0002008) -- CPU_WriteMem(4 bytes @ 0xE000200C) -- CPU_WriteMem(4 bytes @ 0xE0002010) -- CPU_WriteMem(4 bytes @ 0xE0002014) -- CPU_WriteMem(4 bytes @ 0xE0002018) -- CPU_WriteMem(4 bytes @ 0xE000201C) -- CPU_ReadMem(4 bytes @ 0x400FC040) -- CPU_WriteMem(4 bytes @ 0xE0002000)
 -- CPU_WriteMem(4 bytes @ 0xE0002008) -- CPU_WriteMem(4 bytes @ 0xE000200C) -- CPU_WriteMem(4 bytes @ 0xE0002010) -- CPU_WriteMem(4 bytes @ 0xE0002014) -- CPU_WriteMem(4 bytes @ 0xE0002018) -- CPU_WriteMem(4 bytes @ 0xE000201C) -- CPU_WriteMem(4 bytes @ 0xE0002000) -- CPU_ReadMem(4 bytes @ 0xE000EDFC) -- CPU_ReadMem(4 bytes @ 0xE0001000) (0587ms, 1507ms total)
T156C 001:864 JLINK_ReadReg(R15 (PC))  returns 0x00000234 (0000ms, 1507ms total)
T156C 001:864 JLINK_ReadReg(XPSR)  returns 0x61000000 (0000ms, 1507ms total)
T156C 001:886 JLINK_ReadMemU32(0xE0001004, 0x0001 Items, ...) -- CPU_ReadMem(4 bytes @ 0xE0001004) -- Data:  CF 9D 0D 00  returns 0x01 (0001ms, 1508ms total)
T156C 002:251 JLINK_ReadMem (0x00000234, 0x003C Bytes, ...) -- Read from flash cache (60 bytes @ 0x00000234) -- Data:  06 48 80 47 06 48 00 47 FE E7 FE E7 FE E7 FE E7 ...  returns 0x00 (0001ms, 1509ms total)
T122C 005:559 JLINK_SetBPEx(Addr = 0x0000048A, Type = 0xFFFFFFF2)  returns 0x00000001 (0001ms, 1510ms total)
T122C 005:560 JLINK_Go() -- CPU_WriteMem(4 bytes @ 0xE0002000) -- CPU_WriteMem(4 bytes @ 0xE0002008) -- CPU_WriteMem(4 bytes @ 0xE000200C) -- CPU_WriteMem(4 bytes @ 0xE0002010) -- CPU_WriteMem(4 bytes @ 0xE0002014) -- CPU_WriteMem(4 bytes @ 0xE0002018) -- CPU_WriteMem(4 bytes @ 0xE000201C) -- CPU_WriteMem(4 bytes @ 0xE0001004) (0005ms, 1515ms total)
T122C 005:666 JLINK_IsHalted()  returns TRUE (0005ms, 1520ms total)
T122C 005:671 JLINK_Halt()  returns 0x00 (0000ms, 1515ms total)
T122C 005:671 JLINK_IsHalted()  returns TRUE (0000ms, 1515ms total)
T122C 005:671 JLINK_IsHalted()  returns TRUE (0000ms, 1515ms total)
T122C 005:671 JLINK_IsHalted()  returns TRUE (0001ms, 1516ms total)
T122C 005:672 JLINK_ReadReg(R15 (PC))  returns 0x0000048A (0000ms, 1515ms total)
T122C 005:672 JLINK_ReadReg(XPSR)  returns 0x61000000 (0000ms, 1515ms total)
T122C 005:672 JLINK_ClrBPEx(BPHandle = 0x00000001)  returns 0x00 (0000ms, 1515ms total)
T122C 005:672 JLINK_ReadMemU32(0xE000ED30, 0x0001 Items, ...) -- CPU_ReadMem(4 bytes @ 0xE000ED30) -- Data:  02 00 00 00  returns 0x01 (0001ms, 1516ms total)
T122C 005:673 JLINK_ReadMemU32(0xE0001028, 0x0001 Items, ...) -- CPU_ReadMem(4 bytes @ 0xE0001028) -- Data:  00 00 00 00  returns 0x01 (0001ms, 1517ms total)
T122C 005:674 JLINK_ReadMemU32(0xE0001038, 0x0001 Items, ...) -- CPU_ReadMem(4 bytes @ 0xE0001038) -- Data:  00 02 00 00  returns 0x01 (0001ms, 1518ms total)
T122C 005:675 JLINK_ReadMemU32(0xE0001048, 0x0001 Items, ...) -- CPU_ReadMem(4 bytes @ 0xE0001048) -- Data:  00 00 00 00  returns 0x01 (0001ms, 1519ms total)
T122C 005:676 JLINK_ReadMemU32(0xE0001058, 0x0001 Items, ...) -- CPU_ReadMem(4 bytes @ 0xE0001058) -- Data:  00 00 00 01  returns 0x01 (0001ms, 1520ms total)
T122C 005:677 JLINK_ReadReg(R0)  returns 0x0000048B (0000ms, 1520ms total)
T122C 005:677 JLINK_ReadReg(R1)  returns 0x10000B08 (0000ms, 1520ms total)
T122C 005:677 JLINK_ReadReg(R2)  returns 0x00000000 (0001ms, 1521ms total)
T122C 005:678 JLINK_ReadReg(R3)  returns 0x00000721 (0000ms, 1521ms total)
T122C 005:678 JLINK_ReadReg(R4)  returns 0x0000124C (0000ms, 1521ms total)
T122C 005:678 JLINK_ReadReg(R5)  returns 0x0000124C (0000ms, 1521ms total)
T122C 005:678 JLINK_ReadReg(R6)  returns 0x12345678 (0000ms, 1521ms total)
T122C 005:678 JLINK_ReadReg(R7)  returns 0x00000000 (0000ms, 1521ms total)
T122C 005:678 JLINK_ReadReg(R8)  returns 0x00000000 (0000ms, 1521ms total)
T122C 005:678 JLINK_ReadReg(R9)  returns 0x100001DC (0000ms, 1521ms total)
T122C 005:678 JLINK_ReadReg(R10)  returns 0x00000000 (0000ms, 1521ms total)
T122C 005:678 JLINK_ReadReg(R11)  returns 0x00000000 (0000ms, 1521ms total)
T122C 005:678 JLINK_ReadReg(R12)  returns 0x00000107 (0000ms, 1521ms total)
T122C 005:678 JLINK_ReadReg(R13 (SP))  returns 0x10000B08 (0000ms, 1521ms total)
T122C 005:678 JLINK_ReadReg(R14)  returns 0x000006F1 (0000ms, 1521ms total)
T122C 005:678 JLINK_ReadReg(R15 (PC))  returns 0x0000048A (0000ms, 1521ms total)
T122C 005:678 JLINK_ReadReg(XPSR)  returns 0x61000000 (0000ms, 1521ms total)
T122C 005:679 JLINK_ReadReg(MSP)  returns 0x10000B08 (0000ms, 1522ms total)
T122C 005:679 JLINK_ReadReg(PSP)  returns 0x10000800 (0000ms, 1522ms total)
T122C 005:679 JLINK_ReadReg(CFBP)  returns 0x00000000 (0000ms, 1522ms total)
T156C 005:700 JLINK_ReadMem (0x00001204, 0x0002 Bytes, ...) -- Read from flash cache (2 bytes @ 0x00001204) -- Data:  07 00  returns 0x00 (0012ms, 1534ms total)
T156C 005:712 JLINK_ReadMem (0x00001208, 0x0004 Bytes, ...) -- Read from flash cache (4 bytes @ 0x00001208) -- Data:  C8 00 00 01  returns 0x00 (0000ms, 1534ms total)
T156C 005:712 JLINK_ReadMem (0x0000121C, 0x0004 Bytes, ...) -- Read from flash cache (4 bytes @ 0x0000121C) -- Data:  00 00 00 00  returns 0x00 (0000ms, 1534ms total)
T156C 005:712 JLINK_ReadMem (0x00001218, 0x0004 Bytes, ...) -- Read from flash cache (4 bytes @ 0x00001218) -- Data:  80 38 01 00  returns 0x00 (0000ms, 1534ms total)
T156C 005:712 JLINK_ReadMem (0x00000000, 0x0004 Bytes, ...) -- CPU_ReadMem(4 bytes @ 0x400FC040) -- Read from flash cache (4 bytes @ 0x00000000) -- Data:  08 0B 00 10  returns 0x00 (0001ms, 1535ms total)
T156C 005:713 JLINK_ReadMem (0x0000120C, 0x0004 Bytes, ...) -- Read from flash cache (4 bytes @ 0x0000120C) -- Data:  14 00 01 00  returns 0x00 (0000ms, 1535ms total)
T156C 005:713 JLINK_ReadMem (0x1000088C, 0x001C Bytes, ...) -- CPU_ReadMem(64 bytes @ 0x10000880) -- Updating C cache (64 bytes @ 0x10000880) -- Read from C cache (28 bytes @ 0x1000088C) -- Data:  00 00 00 00 00 00 00 00 00 00 00 00 00 00 00 00 ...  returns 0x00 (0002ms, 1537ms total)
T156C 005:715 JLINK_ReadMem (0x100008A8, 0x0030 Bytes, ...) -- CPU_ReadMem(64 bytes @ 0x100008C0) -- Updating C cache (64 bytes @ 0x100008C0) -- Read from C cache (48 bytes @ 0x100008A8) -- Data:  00 00 00 00 00 00 00 00 00 00 00 00 00 00 00 00 ...  returns 0x00 (0002ms, 1539ms total)
T156C 005:717 JLINK_ReadMem (0x100008F0, 0x0016 Bytes, ...) -- CPU_ReadMem(64 bytes @ 0x10000900) -- Updating C cache (64 bytes @ 0x10000900) -- Read from C cache (22 bytes @ 0x100008F0) -- Data:  00 00 00 00 00 00 00 00 00 00 00 00 00 00 00 00 ...  returns 0x00 (0002ms, 1541ms total)
T156C 005:784 JLINK_ReadMemU32(0xE0001004, 0x0001 Items, ...) -- CPU_ReadMem(4 bytes @ 0xE0001004) -- Data:  C1 28 00 00  returns 0x01 (0001ms, 1542ms total)
T156C 005:789 JLINK_ReadMem (0x0000048A, 0x0002 Bytes, ...) -- Read from flash cache (2 bytes @ 0x0000048A) -- Data:  10 B5  returns 0x00 (0000ms, 1542ms total)
T156C 005:789 JLINK_ReadMem (0x0000048C, 0x003C Bytes, ...) -- Read from flash cache (60 bytes @ 0x0000048C) -- Data:  FF F7 DD FF FF F7 29 FE 00 22 0A 21 AF F2 A3 00 ...  returns 0x00 (0000ms, 1542ms total)
T122C 011:341 JLINK_Step() -- Read from flash cache (2 bytes @ 0x0000048A) -- CPU_WriteMem(8 bytes @ 0x10000B00) -- Simulated  returns 0x00 (0003ms, 1545ms total)
T122C 011:344 JLINK_ReadReg(R15 (PC))  returns 0x0000048C (0001ms, 1546ms total)
T122C 011:345 JLINK_ReadReg(XPSR)  returns 0x61000000 (0000ms, 1546ms total)
T122C 011:345 JLINK_ReadReg(R0)  returns 0x0000048B (0000ms, 1546ms total)
T122C 011:345 JLINK_ReadReg(R1)  returns 0x10000B08 (0000ms, 1546ms total)
T122C 011:345 JLINK_ReadReg(R2)  returns 0x00000000 (0000ms, 1546ms total)
T122C 011:345 JLINK_ReadReg(R3)  returns 0x00000721 (0000ms, 1546ms total)
T122C 011:345 JLINK_ReadReg(R4)  returns 0x0000124C (0001ms, 1547ms total)
T122C 011:346 JLINK_ReadReg(R5)  returns 0x0000124C (0000ms, 1547ms total)
T122C 011:346 JLINK_ReadReg(R6)  returns 0x12345678 (0000ms, 1547ms total)
T122C 011:346 JLINK_ReadReg(R7)  returns 0x00000000 (0000ms, 1547ms total)
T122C 011:346 JLINK_ReadReg(R8)  returns 0x00000000 (0000ms, 1547ms total)
T122C 011:346 JLINK_ReadReg(R9)  returns 0x100001DC (0000ms, 1547ms total)
T122C 011:346 JLINK_ReadReg(R10)  returns 0x00000000 (0000ms, 1547ms total)
T122C 011:346 JLINK_ReadReg(R11)  returns 0x00000000 (0000ms, 1547ms total)
T122C 011:347 JLINK_ReadReg(R12)  returns 0x00000107 (0000ms, 1548ms total)
T122C 011:347 JLINK_ReadReg(R13 (SP))  returns 0x10000B00 (0000ms, 1548ms total)
T122C 011:347 JLINK_ReadReg(R14)  returns 0x000006F1 (0000ms, 1548ms total)
T122C 011:347 JLINK_ReadReg(R15 (PC))  returns 0x0000048C (0000ms, 1548ms total)
T122C 011:347 JLINK_ReadReg(XPSR)  returns 0x61000000 (0000ms, 1548ms total)
T122C 011:347 JLINK_ReadReg(MSP)  returns 0x10000B00 (0000ms, 1548ms total)
T122C 011:347 JLINK_ReadReg(PSP)  returns 0x10000800 (0001ms, 1549ms total)
T122C 011:348 JLINK_ReadReg(CFBP)  returns 0x00000000 (0000ms, 1549ms total)
T156C 011:350 JLINK_ReadMem (0x1000088C, 0x001C Bytes, ...) -- Read from C cache (28 bytes @ 0x1000088C) -- Data:  00 00 00 00 00 00 00 00 00 00 00 00 00 00 00 00 ...  returns 0x00 (0000ms, 1549ms total)
T156C 011:350 JLINK_ReadMem (0x100008A8, 0x0030 Bytes, ...) -- Read from C cache (48 bytes @ 0x100008A8) -- Data:  00 00 00 00 00 00 00 00 00 00 00 00 00 00 00 00 ...  returns 0x00 (0001ms, 1550ms total)
T156C 011:351 JLINK_ReadMem (0x100008F0, 0x0016 Bytes, ...) -- Read from C cache (22 bytes @ 0x100008F0) -- Data:  00 00 00 00 00 00 00 00 00 00 00 00 00 00 00 00 ...  returns 0x00 (0000ms, 1550ms total)
T156C 011:351 JLINK_ReadMem (0x10000B04, 0x0004 Bytes, ...) -- CPU_ReadMem(64 bytes @ 0x10000B00) -- Updating C cache (64 bytes @ 0x10000B00) -- Read from C cache (4 bytes @ 0x10000B04) -- Data:  F1 06 00 00  returns 0x00 (0002ms, 1552ms total)
T156C 011:353 JLINK_ReadMemU32(0xE0001004, 0x0001 Items, ...) -- Data:  C1 28 00 00  returns 0x01 (0000ms, 1552ms total)
T122C 012:991 JLINK_ReadMem (0x0000048C, 0x003C Bytes, ...) -- Read from flash cache (60 bytes @ 0x0000048C) -- Data:  FF F7 DD FF FF F7 29 FE 00 22 0A 21 AF F2 A3 00 ...  returns 0x00 (0002ms, 1554ms total)
T122C 012:993 JLINK_SetBPEx(Addr = 0x00000490, Type = 0xFFFFFFF2)  returns 0x00000002 (0000ms, 1554ms total)
T122C 012:993 JLINK_Go() -- CPU_WriteMem(4 bytes @ 0xE0002000) -- CPU_WriteMem(4 bytes @ 0xE0002008) -- CPU_WriteMem(4 bytes @ 0xE0001004) (0007ms, 1561ms total)
T122C 013:101 JLINK_IsHalted()  returns TRUE (0005ms, 1566ms total)
T122C 013:106 JLINK_Halt()  returns 0x00 (0000ms, 1561ms total)
T122C 013:106 JLINK_IsHalted()  returns TRUE (0000ms, 1561ms total)
T122C 013:106 JLINK_IsHalted()  returns TRUE (0000ms, 1561ms total)
T122C 013:106 JLINK_IsHalted()  returns TRUE (0000ms, 1561ms total)
T122C 013:106 JLINK_ReadReg(R15 (PC))  returns 0x00000490 (0000ms, 1561ms total)
T122C 013:106 JLINK_ReadReg(XPSR)  returns 0x61000000 (0000ms, 1561ms total)
T122C 013:106 JLINK_ClrBPEx(BPHandle = 0x00000002)  returns 0x00 (0000ms, 1561ms total)
T122C 013:106 JLINK_ReadMemU32(0xE000ED30, 0x0001 Items, ...) -- CPU_ReadMem(4 bytes @ 0xE000ED30) -- Data:  02 00 00 00  returns 0x01 (0001ms, 1562ms total)
T122C 013:107 JLINK_ReadMemU32(0xE0001028, 0x0001 Items, ...) -- CPU_ReadMem(4 bytes @ 0xE0001028) -- Data:  00 00 00 00  returns 0x01 (0001ms, 1563ms total)
T122C 013:108 JLINK_ReadMemU32(0xE0001038, 0x0001 Items, ...) -- CPU_ReadMem(4 bytes @ 0xE0001038) -- Data:  00 02 00 00  returns 0x01 (0001ms, 1564ms total)
T122C 013:109 JLINK_ReadMemU32(0xE0001048, 0x0001 Items, ...) -- CPU_ReadMem(4 bytes @ 0xE0001048) -- Data:  00 00 00 00  returns 0x01 (0001ms, 1565ms total)
T122C 013:110 JLINK_ReadMemU32(0xE0001058, 0x0001 Items, ...) -- CPU_ReadMem(4 bytes @ 0xE0001058) -- Data:  00 00 00 00  returns 0x01 (0001ms, 1566ms total)
T122C 013:111 JLINK_ReadReg(R0)  returns 0x4000C000 (0000ms, 1566ms total)
T122C 013:111 JLINK_ReadReg(R1)  returns 0x00000003 (0000ms, 1566ms total)
T122C 013:111 JLINK_ReadReg(R2)  returns 0x00000007 (0000ms, 1566ms total)
T122C 013:112 JLINK_ReadReg(R3)  returns 0x00000721 (0000ms, 1567ms total)
T122C 013:112 JLINK_ReadReg(R4)  returns 0x0000124C (0000ms, 1567ms total)
T122C 013:112 JLINK_ReadReg(R5)  returns 0x0000124C (0000ms, 1567ms total)
T122C 013:112 JLINK_ReadReg(R6)  returns 0x12345678 (0000ms, 1567ms total)
T122C 013:112 JLINK_ReadReg(R7)  returns 0x00000000 (0000ms, 1567ms total)
T122C 013:112 JLINK_ReadReg(R8)  returns 0x00000000 (0000ms, 1567ms total)
T122C 013:113 JLINK_ReadReg(R9)  returns 0x100001DC (0000ms, 1568ms total)
T122C 013:113 JLINK_ReadReg(R10)  returns 0x00000000 (0000ms, 1568ms total)
T122C 013:113 JLINK_ReadReg(R11)  returns 0x00000000 (0000ms, 1568ms total)
T122C 013:113 JLINK_ReadReg(R12)  returns 0x00000107 (0000ms, 1568ms total)
T122C 013:113 JLINK_ReadReg(R13 (SP))  returns 0x10000B00 (0000ms, 1568ms total)
T122C 013:113 JLINK_ReadReg(R14)  returns 0x00000491 (0000ms, 1568ms total)
T122C 013:113 JLINK_ReadReg(R15 (PC))  returns 0x00000490 (0001ms, 1569ms total)
T122C 013:114 JLINK_ReadReg(XPSR)  returns 0x61000000 (0000ms, 1569ms total)
T122C 013:114 JLINK_ReadReg(MSP)  returns 0x10000B00 (0000ms, 1569ms total)
T122C 013:114 JLINK_ReadReg(PSP)  returns 0x10000800 (0000ms, 1569ms total)
T122C 013:114 JLINK_ReadReg(CFBP)  returns 0x00000000 (0000ms, 1569ms total)
T156C 013:114 JLINK_ReadMem (0x1000088C, 0x001C Bytes, ...) -- CPU_ReadMem(64 bytes @ 0x10000880) -- Updating C cache (64 bytes @ 0x10000880) -- Read from C cache (28 bytes @ 0x1000088C) -- Data:  00 00 00 00 00 00 00 00 00 00 00 00 00 00 00 00 ...  returns 0x00 (0002ms, 1571ms total)
T156C 013:116 JLINK_ReadMem (0x100008A8, 0x0030 Bytes, ...) -- CPU_ReadMem(64 bytes @ 0x100008C0) -- Updating C cache (64 bytes @ 0x100008C0) -- Read from C cache (48 bytes @ 0x100008A8) -- Data:  00 00 00 00 00 00 00 00 00 00 00 00 00 00 00 00 ...  returns 0x00 (0002ms, 1573ms total)
T156C 013:118 JLINK_ReadMem (0x100008F0, 0x0016 Bytes, ...) -- CPU_ReadMem(64 bytes @ 0x10000900) -- Updating C cache (64 bytes @ 0x10000900) -- Read from C cache (22 bytes @ 0x100008F0) -- Data:  00 00 00 00 00 00 00 00 00 00 00 00 00 00 00 00 ...  returns 0x00 (0002ms, 1575ms total)
T156C 013:120 JLINK_ReadMem (0x10000B04, 0x0004 Bytes, ...) -- CPU_ReadMem(64 bytes @ 0x10000B00) -- Updating C cache (64 bytes @ 0x10000B00) -- Read from C cache (4 bytes @ 0x10000B04) -- Data:  F1 06 00 00  returns 0x00 (0002ms, 1577ms total)
T156C 013:122 JLINK_ReadMemU32(0xE0001004, 0x0001 Items, ...) -- CPU_ReadMem(4 bytes @ 0xE0001004) -- Data:  EA 29 00 00  returns 0x01 (0001ms, 1578ms total)
T156C 013:131 JLINK_ReadMem (0x00000490, 0x003C Bytes, ...) -- Read from flash cache (60 bytes @ 0x00000490) -- Data:  FF F7 29 FE 00 22 0A 21 AF F2 A3 00 DF F8 50 C0 ...  returns 0x00 (0000ms, 1578ms total)
T122C 014:281 JLINK_SetBPEx(Addr = 0x00000494, Type = 0xFFFFFFF2)  returns 0x00000003 (0002ms, 1580ms total)
T122C 014:283 JLINK_Go() -- CPU_WriteMem(4 bytes @ 0xE0002000) -- CPU_WriteMem(4 bytes @ 0xE0002008) (0005ms, 1585ms total)
T122C 014:389 JLINK_IsHalted()  returns TRUE (0005ms, 1590ms total)
T122C 014:394 JLINK_Halt()  returns 0x00 (0000ms, 1585ms total)
T122C 014:394 JLINK_IsHalted()  returns TRUE (0000ms, 1585ms total)
T122C 014:394 JLINK_IsHalted()  returns TRUE (0000ms, 1585ms total)
T122C 014:394 JLINK_IsHalted()  returns TRUE (0000ms, 1585ms total)
T122C 014:394 JLINK_ReadReg(R15 (PC))  returns 0x00000494 (0000ms, 1585ms total)
T122C 014:394 JLINK_ReadReg(XPSR)  returns 0x41000000 (0000ms, 1585ms total)
T122C 014:394 JLINK_ClrBPEx(BPHandle = 0x00000003)  returns 0x00 (0001ms, 1586ms total)
T122C 014:395 JLINK_ReadMemU32(0xE000ED30, 0x0001 Items, ...) -- CPU_ReadMem(4 bytes @ 0xE000ED30) -- Data:  02 00 00 00  returns 0x01 (0001ms, 1587ms total)
T122C 014:396 JLINK_ReadMemU32(0xE0001028, 0x0001 Items, ...) -- CPU_ReadMem(4 bytes @ 0xE0001028) -- Data:  00 00 00 00  returns 0x01 (0001ms, 1588ms total)
T122C 014:397 JLINK_ReadMemU32(0xE0001038, 0x0001 Items, ...) -- CPU_ReadMem(4 bytes @ 0xE0001038) -- Data:  00 02 00 00  returns 0x01 (0000ms, 1588ms total)
T122C 014:397 JLINK_ReadMemU32(0xE0001048, 0x0001 Items, ...) -- CPU_ReadMem(4 bytes @ 0xE0001048) -- Data:  00 00 00 00  returns 0x01 (0001ms, 1589ms total)
T122C 014:398 JLINK_ReadMemU32(0xE0001058, 0x0001 Items, ...) -- CPU_ReadMem(4 bytes @ 0xE0001058) -- Data:  00 00 00 00  returns 0x01 (0001ms, 1590ms total)
T122C 014:399 JLINK_ReadReg(R0)  returns 0x00000003 (0000ms, 1590ms total)
T122C 014:399 JLINK_ReadReg(R1)  returns 0x00000003 (0000ms, 1590ms total)
T122C 014:399 JLINK_ReadReg(R2)  returns 0x00000007 (0000ms, 1590ms total)
T122C 014:399 JLINK_ReadReg(R3)  returns 0x00000721 (0000ms, 1590ms total)
T122C 014:399 JLINK_ReadReg(R4)  returns 0x0000124C (0001ms, 1591ms total)
T122C 014:400 JLINK_ReadReg(R5)  returns 0x0000124C (0000ms, 1591ms total)
T122C 014:400 JLINK_ReadReg(R6)  returns 0x12345678 (0000ms, 1591ms total)
T122C 014:400 JLINK_ReadReg(R7)  returns 0x00000000 (0000ms, 1591ms total)
T122C 014:400 JLINK_ReadReg(R8)  returns 0x00000000 (0000ms, 1591ms total)
T122C 014:400 JLINK_ReadReg(R9)  returns 0x100001DC (0000ms, 1591ms total)
T122C 014:400 JLINK_ReadReg(R10)  returns 0x00000000 (0000ms, 1591ms total)
T122C 014:400 JLINK_ReadReg(R11)  returns 0x00000000 (0000ms, 1591ms total)
T122C 014:401 JLINK_ReadReg(R12)  returns 0x00000107 (0000ms, 1592ms total)
T122C 014:401 JLINK_ReadReg(R13 (SP))  returns 0x10000B00 (0000ms, 1592ms total)
T122C 014:401 JLINK_ReadReg(R14)  returns 0x00000495 (0000ms, 1592ms total)
T122C 014:401 JLINK_ReadReg(R15 (PC))  returns 0x00000494 (0000ms, 1592ms total)
T122C 014:401 JLINK_ReadReg(XPSR)  returns 0x41000000 (0000ms, 1592ms total)
T122C 014:401 JLINK_ReadReg(MSP)  returns 0x10000B00 (0000ms, 1592ms total)
T122C 014:401 JLINK_ReadReg(PSP)  returns 0x10000B00 (0001ms, 1593ms total)
T122C 014:402 JLINK_ReadReg(CFBP)  returns 0x03000000 (0000ms, 1593ms total)
T156C 014:402 JLINK_ReadMem (0x1000088C, 0x001C Bytes, ...) -- CPU_ReadMem(64 bytes @ 0x10000880) -- Updating C cache (64 bytes @ 0x10000880) -- Read from C cache (28 bytes @ 0x1000088C) -- Data:  00 00 00 00 00 00 00 00 00 00 00 00 00 00 00 00 ...  returns 0x00 (0002ms, 1595ms total)
T156C 014:404 JLINK_ReadMem (0x100008A8, 0x0030 Bytes, ...) -- CPU_ReadMem(64 bytes @ 0x100008C0) -- Updating C cache (64 bytes @ 0x100008C0) -- Read from C cache (48 bytes @ 0x100008A8) -- Data:  00 00 00 00 00 00 00 00 00 00 00 00 00 00 00 00 ...  returns 0x00 (0002ms, 1597ms total)
T156C 014:406 JLINK_ReadMem (0x100008F0, 0x0016 Bytes, ...) -- CPU_ReadMem(64 bytes @ 0x10000900) -- Updating C cache (64 bytes @ 0x10000900) -- Read from C cache (22 bytes @ 0x100008F0) -- Data:  00 00 00 00 00 00 00 00 00 00 00 00 00 00 00 00 ...  returns 0x00 (0002ms, 1599ms total)
T156C 014:408 JLINK_ReadMem (0x10000B04, 0x0004 Bytes, ...) -- CPU_ReadMem(64 bytes @ 0x10000B00) -- Updating C cache (64 bytes @ 0x10000B00) -- Read from C cache (4 bytes @ 0x10000B04) -- Data:  F1 06 00 00  returns 0x00 (0002ms, 1601ms total)
T156C 014:410 JLINK_ReadMemU32(0xE0001004, 0x0001 Items, ...) -- CPU_ReadMem(4 bytes @ 0xE0001004) -- Data:  06 2A 00 00  returns 0x01 (0001ms, 1602ms total)
T122C 014:964 JLINK_ReadMem (0x00000494, 0x003C Bytes, ...) -- Read from flash cache (60 bytes @ 0x00000494) -- Data:  00 22 0A 21 AF F2 A3 00 DF F8 50 C0 00 DF 00 20 ...  returns 0x00 (0000ms, 1602ms total)
T122C 014:964 JLINK_Step() -- Read from flash cache (2 bytes @ 0x00000494) -- Simulated  returns 0x00 (0002ms, 1604ms total)
T122C 014:966 JLINK_ReadReg(R15 (PC))  returns 0x00000496 (0001ms, 1605ms total)
T122C 014:967 JLINK_ReadReg(XPSR)  returns 0x41000000 (0000ms, 1605ms total)
T122C 014:967 JLINK_ReadReg(R0)  returns 0x00000003 (0000ms, 1605ms total)
T122C 014:967 JLINK_ReadReg(R1)  returns 0x00000003 (0000ms, 1605ms total)
T122C 014:967 JLINK_ReadReg(R2)  returns 0x00000000 (0000ms, 1605ms total)
T122C 014:967 JLINK_ReadReg(R3)  returns 0x00000721 (0000ms, 1605ms total)
T122C 014:967 JLINK_ReadReg(R4)  returns 0x0000124C (0001ms, 1606ms total)
T122C 014:968 JLINK_ReadReg(R5)  returns 0x0000124C (0000ms, 1606ms total)
T122C 014:968 JLINK_ReadReg(R6)  returns 0x12345678 (0000ms, 1606ms total)
T122C 014:968 JLINK_ReadReg(R7)  returns 0x00000000 (0000ms, 1606ms total)
T122C 014:968 JLINK_ReadReg(R8)  returns 0x00000000 (0000ms, 1606ms total)
T122C 014:968 JLINK_ReadReg(R9)  returns 0x100001DC (0000ms, 1606ms total)
T122C 014:968 JLINK_ReadReg(R10)  returns 0x00000000 (0001ms, 1607ms total)
T122C 014:969 JLINK_ReadReg(R11)  returns 0x00000000 (0000ms, 1607ms total)
T122C 014:969 JLINK_ReadReg(R12)  returns 0x00000107 (0000ms, 1607ms total)
T122C 014:969 JLINK_ReadReg(R13 (SP))  returns 0x10000B00 (0000ms, 1607ms total)
T122C 014:969 JLINK_ReadReg(R14)  returns 0x00000495 (0000ms, 1607ms total)
T122C 014:969 JLINK_ReadReg(R15 (PC))  returns 0x00000496 (0000ms, 1607ms total)
T122C 014:969 JLINK_ReadReg(XPSR)  returns 0x41000000 (0000ms, 1607ms total)
T122C 014:969 JLINK_ReadReg(MSP)  returns 0x10000B00 (0001ms, 1608ms total)
T122C 014:970 JLINK_ReadReg(PSP)  returns 0x10000B00 (0209ms, 1817ms total)
T122C 015:181 JLINK_ReadReg(CFBP)  returns 0x03000000 (0000ms, 1817ms total)
T156C 015:183 JLINK_ReadMem (0x1000088C, 0x001C Bytes, ...) -- Read from C cache (28 bytes @ 0x1000088C) -- Data:  00 00 00 00 00 00 00 00 00 00 00 00 00 00 00 00 ...  returns 0x00 (0000ms, 1817ms total)
T156C 015:183 JLINK_ReadMem (0x100008A8, 0x0030 Bytes, ...) -- Read from C cache (48 bytes @ 0x100008A8) -- Data:  00 00 00 00 00 00 00 00 00 00 00 00 00 00 00 00 ...  returns 0x00 (0000ms, 1817ms total)
T156C 015:183 JLINK_ReadMem (0x100008F0, 0x0016 Bytes, ...) -- Read from C cache (22 bytes @ 0x100008F0) -- Data:  00 00 00 00 00 00 00 00 00 00 00 00 00 00 00 00 ...  returns 0x00 (0001ms, 1818ms total)
T156C 015:184 JLINK_ReadMem (0x10000B04, 0x0004 Bytes, ...) -- Read from C cache (4 bytes @ 0x10000B04) -- Data:  F1 06 00 00  returns 0x00 (0000ms, 1818ms total)
T156C 015:184 JLINK_ReadMemU32(0xE0001004, 0x0001 Items, ...) -- Data:  06 2A 00 00  returns 0x01 (0000ms, 1818ms total)
T122C 015:741 JLINK_ReadMem (0x00000496, 0x0002 Bytes, ...) -- Read from flash cache (2 bytes @ 0x00000496) -- Data:  0A 21  returns 0x00 (0001ms, 1819ms total)
T122C 015:742 JLINK_ReadMem (0x00000498, 0x003C Bytes, ...) -- Read from flash cache (60 bytes @ 0x00000498) -- Data:  AF F2 A3 00 DF F8 50 C0 00 DF 00 20 10 BD 00 00 ...  returns 0x00 (0000ms, 1819ms total)
T122C 015:742 JLINK_Step() -- Read from flash cache (2 bytes @ 0x00000496) -- Simulated  returns 0x00 (0002ms, 1821ms total)
T122C 015:744 JLINK_ReadReg(R15 (PC))  returns 0x00000498 (0000ms, 1821ms total)
T122C 015:744 JLINK_ReadReg(XPSR)  returns 0x01000000 (0001ms, 1822ms total)
T122C 015:745 JLINK_ReadReg(R0)  returns 0x00000003 (0000ms, 1822ms total)
T122C 015:745 JLINK_ReadReg(R1)  returns 0x0000000A (0000ms, 1822ms total)
T122C 015:745 JLINK_ReadReg(R2)  returns 0x00000000 (0000ms, 1822ms total)
T122C 015:745 JLINK_ReadReg(R3)  returns 0x00000721 (0000ms, 1822ms total)
T122C 015:745 JLINK_ReadReg(R4)  returns 0x0000124C (0000ms, 1822ms total)
T122C 015:745 JLINK_ReadReg(R5)  returns 0x0000124C (0001ms, 1823ms total)
T122C 015:746 JLINK_ReadReg(R6)  returns 0x12345678 (0000ms, 1823ms total)
T122C 015:746 JLINK_ReadReg(R7)  returns 0x00000000 (0000ms, 1823ms total)
T122C 015:746 JLINK_ReadReg(R8)  returns 0x00000000 (0000ms, 1823ms total)
T122C 015:746 JLINK_ReadReg(R9)  returns 0x100001DC (0000ms, 1823ms total)
T122C 015:746 JLINK_ReadReg(R10)  returns 0x00000000 (0000ms, 1823ms total)
T122C 015:746 JLINK_ReadReg(R11)  returns 0x00000000 (0001ms, 1824ms total)
T122C 015:747 JLINK_ReadReg(R12)  returns 0x00000107 (0000ms, 1824ms total)
T122C 015:747 JLINK_ReadReg(R13 (SP))  returns 0x10000B00 (0000ms, 1824ms total)
T122C 015:747 JLINK_ReadReg(R14)  returns 0x00000495 (0000ms, 1824ms total)
T122C 015:747 JLINK_ReadReg(R15 (PC))  returns 0x00000498 (0000ms, 1824ms total)
T122C 015:747 JLINK_ReadReg(XPSR)  returns 0x01000000 (0000ms, 1824ms total)
T122C 015:747 JLINK_ReadReg(MSP)  returns 0x10000B00 (0000ms, 1824ms total)
T122C 015:747 JLINK_ReadReg(PSP)  returns 0x10000B00 (0001ms, 1825ms total)
T122C 015:748 JLINK_ReadReg(CFBP)  returns 0x03000000 (0000ms, 1825ms total)
T156C 015:752 JLINK_ReadMem (0x1000088C, 0x001C Bytes, ...) -- Read from C cache (28 bytes @ 0x1000088C) -- Data:  00 00 00 00 00 00 00 00 00 00 00 00 00 00 00 00 ...  returns 0x00 (0000ms, 1825ms total)
T156C 015:752 JLINK_ReadMem (0x100008A8, 0x0030 Bytes, ...) -- Read from C cache (48 bytes @ 0x100008A8) -- Data:  00 00 00 00 00 00 00 00 00 00 00 00 00 00 00 00 ...  returns 0x00 (0001ms, 1826ms total)
T156C 015:753 JLINK_ReadMem (0x100008F0, 0x0016 Bytes, ...) -- Read from C cache (22 bytes @ 0x100008F0) -- Data:  00 00 00 00 00 00 00 00 00 00 00 00 00 00 00 00 ...  returns 0x00 (0000ms, 1826ms total)
T156C 015:753 JLINK_ReadMem (0x10000B04, 0x0004 Bytes, ...) -- Read from C cache (4 bytes @ 0x10000B04) -- Data:  F1 06 00 00  returns 0x00 (0000ms, 1826ms total)
T156C 015:753 JLINK_ReadMemU32(0xE0001004, 0x0001 Items, ...) -- Data:  06 2A 00 00  returns 0x01 (0000ms, 1826ms total)
T156C 015:761 JLINK_ReadMem (0x00000498, 0x003C Bytes, ...) -- Read from flash cache (60 bytes @ 0x00000498) -- Data:  AF F2 A3 00 DF F8 50 C0 00 DF 00 20 10 BD 00 00 ...  returns 0x00 (0000ms, 1826ms total)
T122C 016:239 JLINK_Step() -- Read from flash cache (2 bytes @ 0x00000498) -- Read from flash cache (2 bytes @ 0x0000049A) -- Not simulated -- CPU_WriteMem(4 bytes @ 0xE0002008) -- CPU_WriteMem(4 bytes @ 0xE0001004)  returns 0x00 (0010ms, 1836ms total)
T122C 016:249 JLINK_ReadReg(R15 (PC))  returns 0x0000049C (0001ms, 1837ms total)
T122C 016:250 JLINK_ReadReg(XPSR)  returns 0x01000000 (0000ms, 1837ms total)
T122C 016:250 JLINK_ReadReg(R0)  returns 0x000003F9 (0001ms, 1838ms total)
T122C 016:251 JLINK_ReadReg(R1)  returns 0x0000000A (0000ms, 1838ms total)
T122C 016:251 JLINK_ReadReg(R2)  returns 0x00000000 (0000ms, 1838ms total)
T122C 016:251 JLINK_ReadReg(R3)  returns 0x00000721 (0000ms, 1838ms total)
T122C 016:251 JLINK_ReadReg(R4)  returns 0x0000124C (0000ms, 1838ms total)
T122C 016:251 JLINK_ReadReg(R5)  returns 0x0000124C (0000ms, 1838ms total)
T122C 016:251 JLINK_ReadReg(R6)  returns 0x12345678 (0000ms, 1838ms total)
T122C 016:251 JLINK_ReadReg(R7)  returns 0x00000000 (0001ms, 1839ms total)
T122C 016:252 JLINK_ReadReg(R8)  returns 0x00000000 (0000ms, 1839ms total)
T122C 016:252 JLINK_ReadReg(R9)  returns 0x100001DC (0000ms, 1839ms total)
T122C 016:252 JLINK_ReadReg(R10)  returns 0x00000000 (0000ms, 1839ms total)
T122C 016:252 JLINK_ReadReg(R11)  returns 0x00000000 (0000ms, 1839ms total)
T122C 016:252 JLINK_ReadReg(R12)  returns 0x00000107 (0000ms, 1839ms total)
T122C 016:252 JLINK_ReadReg(R13 (SP))  returns 0x10000B00 (0000ms, 1839ms total)
T122C 016:252 JLINK_ReadReg(R14)  returns 0x00000495 (0001ms, 1840ms total)
T122C 016:253 JLINK_ReadReg(R15 (PC))  returns 0x0000049C (0000ms, 1840ms total)
T122C 016:253 JLINK_ReadReg(XPSR)  returns 0x01000000 (0000ms, 1840ms total)
T122C 016:253 JLINK_ReadReg(MSP)  returns 0x10000B00 (0000ms, 1840ms total)
T122C 016:253 JLINK_ReadReg(PSP)  returns 0x10000B00 (0000ms, 1840ms total)
T122C 016:253 JLINK_ReadReg(CFBP)  returns 0x03000000 (0000ms, 1840ms total)
T156C 016:255 JLINK_ReadMem (0x1000088C, 0x001C Bytes, ...) -- CPU_ReadMem(64 bytes @ 0x10000880) -- Updating C cache (64 bytes @ 0x10000880) -- Read from C cache (28 bytes @ 0x1000088C) -- Data:  00 00 00 00 00 00 00 00 00 00 00 00 00 00 00 00 ...  returns 0x00 (0002ms, 1842ms total)
T156C 016:257 JLINK_ReadMem (0x100008A8, 0x0030 Bytes, ...) -- CPU_ReadMem(64 bytes @ 0x100008C0) -- Updating C cache (64 bytes @ 0x100008C0) -- Read from C cache (48 bytes @ 0x100008A8) -- Data:  00 00 00 00 00 00 00 00 00 00 00 00 00 00 00 00 ...  returns 0x00 (0002ms, 1844ms total)
T156C 016:260 JLINK_ReadMem (0x100008F0, 0x0016 Bytes, ...) -- CPU_ReadMem(64 bytes @ 0x10000900) -- Updating C cache (64 bytes @ 0x10000900) -- Read from C cache (22 bytes @ 0x100008F0) -- Data:  00 00 00 00 00 00 00 00 00 00 00 00 00 00 00 00 ...  returns 0x00 (0002ms, 1846ms total)
T156C 016:262 JLINK_ReadMem (0x10000B04, 0x0004 Bytes, ...) -- CPU_ReadMem(64 bytes @ 0x10000B00) -- Updating C cache (64 bytes @ 0x10000B00) -- Read from C cache (4 bytes @ 0x10000B04) -- Data:  F1 06 00 00  returns 0x00 (0002ms, 1848ms total)
T156C 016:264 JLINK_ReadMemU32(0xE0001004, 0x0001 Items, ...) -- CPU_ReadMem(4 bytes @ 0xE0001004) -- Data:  09 2A 00 00  returns 0x01 (0001ms, 1849ms total)
T122C 016:752 JLINK_ReadMem (0x0000049C, 0x003C Bytes, ...) -- Read from flash cache (60 bytes @ 0x0000049C) -- Data:  DF F8 50 C0 00 DF 00 20 10 BD 00 00 00 00 00 10 ...  returns 0x00 (0001ms, 1850ms total)
T122C 016:753 JLINK_Step() -- Read from flash cache (2 bytes @ 0x0000049C) -- Read from flash cache (2 bytes @ 0x0000049E) -- Not simulated  returns 0x00 (0007ms, 1857ms total)
T122C 016:761 JLINK_ReadReg(R15 (PC))  returns 0x000004A0 (0000ms, 1858ms total)
T122C 016:761 JLINK_ReadReg(XPSR)  returns 0x01000000 (0000ms, 1858ms total)
T122C 016:761 JLINK_ReadReg(R0)  returns 0x000003F9 (0000ms, 1858ms total)
T122C 016:761 JLINK_ReadReg(R1)  returns 0x0000000A (0000ms, 1858ms total)
T122C 016:761 JLINK_ReadReg(R2)  returns 0x00000000 (0000ms, 1858ms total)
T122C 016:761 JLINK_ReadReg(R3)  returns 0x00000721 (0001ms, 1859ms total)
T122C 016:762 JLINK_ReadReg(R4)  returns 0x0000124C (0000ms, 1859ms total)
T122C 016:762 JLINK_ReadReg(R5)  returns 0x0000124C (0000ms, 1859ms total)
T122C 016:762 JLINK_ReadReg(R6)  returns 0x12345678 (0000ms, 1859ms total)
T122C 016:762 JLINK_ReadReg(R7)  returns 0x00000000 (0000ms, 1859ms total)
T122C 016:762 JLINK_ReadReg(R8)  returns 0x00000000 (0000ms, 1859ms total)
T122C 016:762 JLINK_ReadReg(R9)  returns 0x100001DC (0000ms, 1859ms total)
T122C 016:762 JLINK_ReadReg(R10)  returns 0x00000000 (0000ms, 1859ms total)
T122C 016:763 JLINK_ReadReg(R11)  returns 0x00000000 (0000ms, 1860ms total)
T122C 016:763 JLINK_ReadReg(R12)  returns 0x00000F11 (0000ms, 1860ms total)
T122C 016:763 JLINK_ReadReg(R13 (SP))  returns 0x10000B00 (0000ms, 1860ms total)
T122C 016:763 JLINK_ReadReg(R14)  returns 0x00000495 (0000ms, 1860ms total)
T122C 016:763 JLINK_ReadReg(R15 (PC))  returns 0x000004A0 (0000ms, 1860ms total)
T122C 016:763 JLINK_ReadReg(XPSR)  returns 0x01000000 (0000ms, 1860ms total)
T122C 016:763 JLINK_ReadReg(MSP)  returns 0x10000B00 (0000ms, 1860ms total)
T122C 016:763 JLINK_ReadReg(PSP)  returns 0x10000B00 (0001ms, 1861ms total)
T122C 016:764 JLINK_ReadReg(CFBP)  returns 0x03000000 (0000ms, 1861ms total)
T156C 016:766 JLINK_ReadMem (0x1000088C, 0x001C Bytes, ...) -- CPU_ReadMem(64 bytes @ 0x10000880) -- Updating C cache (64 bytes @ 0x10000880) -- Read from C cache (28 bytes @ 0x1000088C) -- Data:  00 00 00 00 00 00 00 00 00 00 00 00 00 00 00 00 ...  returns 0x00 (0002ms, 1863ms total)
T156C 016:768 JLINK_ReadMem (0x100008A8, 0x0030 Bytes, ...) -- CPU_ReadMem(64 bytes @ 0x100008C0) -- Updating C cache (64 bytes @ 0x100008C0) -- Read from C cache (48 bytes @ 0x100008A8) -- Data:  00 00 00 00 00 00 00 00 00 00 00 00 00 00 00 00 ...  returns 0x00 (0002ms, 1865ms total)
T156C 016:770 JLINK_ReadMem (0x100008F0, 0x0016 Bytes, ...) -- CPU_ReadMem(64 bytes @ 0x10000900) -- Updating C cache (64 bytes @ 0x10000900) -- Read from C cache (22 bytes @ 0x100008F0) -- Data:  00 00 00 00 00 00 00 00 00 00 00 00 00 00 00 00 ...  returns 0x00 (0002ms, 1867ms total)
T156C 016:772 JLINK_ReadMem (0x10000B04, 0x0004 Bytes, ...) -- CPU_ReadMem(64 bytes @ 0x10000B00) -- Updating C cache (64 bytes @ 0x10000B00) -- Read from C cache (4 bytes @ 0x10000B04) -- Data:  F1 06 00 00  returns 0x00 (0001ms, 1868ms total)
T156C 016:773 JLINK_ReadMemU32(0xE0001004, 0x0001 Items, ...) -- CPU_ReadMem(4 bytes @ 0xE0001004) -- Data:  0F 2A 00 00  returns 0x01 (0001ms, 1869ms total)
T122C 017:184 JLINK_ReadMem (0x000004A0, 0x003C Bytes, ...) -- Read from flash cache (60 bytes @ 0x000004A0) -- Data:  00 DF 00 20 10 BD 00 00 00 00 00 10 44 00 00 10 ...  returns 0x00 (0000ms, 1869ms total)
T122C 017:184 JLINK_SetBPEx(Addr = 0x000004A2, Type = 0xFFFFFFF2)  returns 0x00000004 (0000ms, 1869ms total)
T122C 017:184 JLINK_Go() -- CPU_WriteMem(4 bytes @ 0xE0002000) -- CPU_WriteMem(4 bytes @ 0xE0002008) (0005ms, 1874ms total)
T122C 017:289 JLINK_IsHalted()  returns FALSE (0001ms, 1875ms total)
T122C 017:391 JLINK_IsHalted()  returns FALSE (0001ms, 1875ms total)
T122C 017:492 JLINK_IsHalted()  returns FALSE (0001ms, 1875ms total)
T122C 017:594 JLINK_IsHalted()  returns FALSE (0000ms, 1874ms total)
T122C 017:694 JLINK_ReadMemU32(0xE0001004, 0x0001 Items, ...) -- CPU is running -- CPU_ReadMem(4 bytes @ 0xE0001004) -- Data:  34 6D 05 03  returns 0x01 (0001ms, 1875ms total)
T122C 017:695 JLINK_IsHalted()  returns FALSE (0001ms, 1876ms total)
T122C 017:797 JLINK_IsHalted()  returns FALSE (0001ms, 1876ms total)
T122C 017:898 JLINK_IsHalted()  returns FALSE (0001ms, 1876ms total)
T122C 018:000 JLINK_IsHalted()  returns FALSE (0001ms, 1876ms total)
T122C 018:102 JLINK_IsHalted()  returns FALSE (0001ms, 1876ms total)
T122C 018:203 JLINK_IsHalted()  returns FALSE (0001ms, 1876ms total)
T122C 018:306 JLINK_ReadMemU32(0xE0001004, 0x0001 Items, ...) -- CPU is running -- CPU_ReadMem(4 bytes @ 0xE0001004) -- Data:  6D 6F AA 06  returns 0x01 (0001ms, 1876ms total)
T122C 018:309 JLINK_IsHalted()  returns FALSE (0001ms, 1877ms total)
T122C 018:410 JLINK_IsHalted()  returns FALSE (0001ms, 1877ms total)
T122C 018:512 JLINK_IsHalted()  returns FALSE (0001ms, 1877ms total)
T122C 018:613 JLINK_IsHalted()  returns FALSE (0001ms, 1877ms total)
T122C 018:715 JLINK_IsHalted()  returns FALSE (0000ms, 1876ms total)
T122C 018:815 JLINK_IsHalted()  returns FALSE (0002ms, 1878ms total)
T122C 018:918 JLINK_ReadMemU32(0xE0001004, 0x0001 Items, ...) -- CPU is running -- CPU_ReadMem(4 bytes @ 0xE0001004) -- Data:  10 6C 50 0A  returns 0x01 (0001ms, 1877ms total)
T122C 018:920 JLINK_IsHalted()  returns FALSE (0000ms, 1877ms total)
T122C 019:021 JLINK_IsHalted()  returns FALSE (0001ms, 1878ms total)
T122C 019:123 JLINK_IsHalted()  returns FALSE (0001ms, 1878ms total)
T122C 019:225 JLINK_IsHalted()  returns FALSE (0001ms, 1878ms total)
T122C 019:326 JLINK_IsHalted()  returns FALSE (0001ms, 1878ms total)
T122C 019:428 JLINK_IsHalted()  returns FALSE (0003ms, 1880ms total)
T122C 019:531 JLINK_ReadMemU32(0xE0001004, 0x0001 Items, ...) -- CPU is running -- CPU_ReadMem(4 bytes @ 0xE0001004) -- Data:  34 17 F8 0D  returns 0x01 (0001ms, 1878ms total)
T122C 019:532 JLINK_IsHalted()  returns FALSE (0001ms, 1879ms total)
T122C 019:634 JLINK_IsHalted()  returns FALSE (0001ms, 1879ms total)
T122C 019:736 JLINK_IsHalted()  returns FALSE (0001ms, 1879ms total)
T122C 019:838 JLINK_IsHalted()  returns FALSE (0001ms, 1879ms total)
T122C 019:939 JLINK_IsHalted()  returns FALSE (0001ms, 1879ms total)
T122C 020:041 JLINK_ReadMemU32(0xE0001004, 0x0001 Items, ...) -- CPU is running -- CPU_ReadMem(4 bytes @ 0xE0001004) -- Data:  46 06 02 11  returns 0x01 (0001ms, 1879ms total)
T122C 020:043 JLINK_IsHalted()  returns FALSE (0000ms, 1879ms total)
T122C 020:144 JLINK_IsHalted()  returns FALSE (0001ms, 1880ms total)
T122C 020:245 JLINK_IsHalted()  returns FALSE (0001ms, 1880ms total)
T122C 020:347 JLINK_IsHalted()  returns FALSE (0001ms, 1880ms total)
T122C 020:448 JLINK_IsHalted()  returns FALSE (0001ms, 1880ms total)
T122C 020:550 JLINK_IsHalted()  returns FALSE (0000ms, 1879ms total)
T122C 020:650 JLINK_ReadMemU32(0xE0001004, 0x0001 Items, ...) -- CPU is running -- CPU_ReadMem(4 bytes @ 0xE0001004) -- Data:  85 09 A4 14  returns 0x01 (0001ms, 1880ms total)
T122C 020:654 JLINK_IsHalted()  returns FALSE (0001ms, 1881ms total)
T122C 020:756 JLINK_IsHalted()  returns FALSE (0000ms, 1880ms total)
T122C 020:856 JLINK_IsHalted()  returns FALSE (0002ms, 1882ms total)
T122C 020:959 JLINK_IsHalted()  returns FALSE (0000ms, 1880ms total)
T122C 021:060 JLINK_IsHalted()  returns FALSE (0002ms, 1882ms total)
T122C 021:162 JLINK_IsHalted()  returns FALSE (0001ms, 1881ms total)
T122C 021:264 JLINK_ReadMemU32(0xE0001004, 0x0001 Items, ...) -- CPU is running -- CPU_ReadMem(4 bytes @ 0xE0001004) -- Data:  3F 53 4B 18  returns 0x01 (0001ms, 1881ms total)
T122C 021:265 JLINK_IsHalted()  returns FALSE (0001ms, 1882ms total)
T122C 021:366 JLINK_IsHalted()  returns FALSE (0001ms, 1882ms total)
T122C 021:468 JLINK_IsHalted()  returns FALSE (0001ms, 1882ms total)
T122C 021:569 JLINK_IsHalted()  returns FALSE (0001ms, 1882ms total)
T122C 021:671 JLINK_IsHalted()  returns FALSE (0001ms, 1882ms total)
T122C 021:772 JLINK_ReadMemU32(0xE0001004, 0x0001 Items, ...) -- CPU is running -- CPU_ReadMem(4 bytes @ 0xE0001004) -- Data:  0B 9C 53 1B  returns 0x01 (0001ms, 1882ms total)
T122C 021:773 JLINK_IsHalted()  returns FALSE (0001ms, 1883ms total)
T122C 021:875 JLINK_IsHalted()  returns FALSE (0001ms, 1883ms total)
T122C 021:977 JLINK_IsHalted()  returns FALSE (0001ms, 1883ms total)
T122C 022:078 JLINK_IsHalted()  returns FALSE (0001ms, 1883ms total)
T122C 022:180 JLINK_IsHalted()  returns FALSE (0001ms, 1883ms total)
T122C 022:281 JLINK_IsHalted()  returns FALSE (0001ms, 1883ms total)
T122C 022:383 JLINK_ReadMemU32(0xE0001004, 0x0001 Items, ...) -- CPU is running -- CPU_ReadMem(4 bytes @ 0xE0001004) -- Data:  E1 E2 F6 1E  returns 0x01 (0001ms, 1883ms total)
T122C 022:384 JLINK_IsHalted()  returns FALSE (0000ms, 1883ms total)
T122C 022:485 JLINK_IsHalted()  returns FALSE (0001ms, 1884ms total)
T122C 022:587 JLINK_IsHalted()  returns FALSE (0000ms, 1883ms total)
T122C 022:688 JLINK_IsHalted()  returns FALSE (0001ms, 1884ms total)
T122C 022:789 JLINK_IsHalted()  returns FALSE (0000ms, 1883ms total)
T122C 022:890 JLINK_IsHalted()  returns FALSE (0003ms, 1886ms total)
T122C 022:993 JLINK_ReadMemU32(0xE0001004, 0x0001 Items, ...) -- CPU is running -- CPU_ReadMem(4 bytes @ 0xE0001004) -- Data:  78 27 9A 22  returns 0x01 (0001ms, 1884ms total)
T122C 022:994 JLINK_IsHalted()  returns FALSE (0001ms, 1885ms total)
T122C 023:096 JLINK_IsHalted()  returns FALSE (0002ms, 1886ms total)
